EC-Lab ASCII FILE
Nb header lines : 59                          

Potentio Electrochemical Impedance Spectroscopy

Run on channel : 1 (SN 1013)
User : 
Electrode connection : standard
Ewe ctrl range : min = -10.00 V, max = 10.00 V
Ewe,I filtering : 50 kHz
Channel : Floating
Acquisition started on : 03/30/2017 14:18:37
Saved on :
	File : 170330-00.mpr
	Directory : C:\EC-Lab\Data\Remington\
	Host : 127.0.0.1
Device : SP-300 (SN 0316)
Address : USB
EC-Lab for windows v10.33 (software)
Internet server v10.33 (firmware)
Command interpretor v10.32 (firmware)
Electrode material : 
Initial state : 
Electrolyte : 
Comments : 
Cable : standard
Electrode surface area : 0.001 cm²
Characteristic mass : 0.001 g
Equivalent Weight : 0.000 g/eq.
Density : 0.000 g/cm3
Mode                Single sine         
E (V)               0.0000              
vs.                 Eoc                 
tE (h:m:s)          0:00:0.0000         
record              0                   
dI                  0.000               
unit dI             mA                  
dt (s)              0.000               
fi                  7.000               
unit fi             MHz                 
ff                  1.000               
unit ff             Hz                  
Nd                  10                  
Points              per decade          
spacing             Logarithmic         
Va (mV)             10.0                
pw                  0.10                
Na                  1                   
corr                0                   
E range min (V)     -10.000             
E range max (V)     10.000              
I Range             Auto                
Bandwidth           8                   
nc cycles           0                   
goto Ns'            0                   
nr cycles           0                   
inc. cycle          0                   

freq/Hz	Re(Z)/Ohm	-Im(Z)/Ohm	|Z|/Ohm	Phase(Z)/deg	time/s	<Ewe>/V	<I>/mA	Cs/µF	Cp/µF	cycle number	I Range	|Ewe|/V	|I|/A	Re(Y)/Ohm-1	Im(Y)/Ohm-1	|Y|/Ohm-1	Phase(Y)/deg
7.0000235E+006	8.9575378E+002	1.4737286E+002	9.0779602E+002	-9.3428249E+000	2.520595719717676E+000	3.2686270E-004	3.8181988E-005	1.5427769E-004	4.0659461E-006	1.000000000000000E+000	40	7.7147512E-003	8.4983312E-006	1.0869564E-003	1.7883025E-004	1.1015690E-003	9.3428249E+000
5.5518060E+006	9.7820587E+002	7.7754303E+001	9.8129120E+002	-4.5446944E+000	3.437591469875770E+000	-1.4918515E-005	3.3929438E-005	3.6869009E-004	2.3148054E-006	1.000000000000000E+000	40	1.0245220E-002	1.0440550E-005	1.0158614E-003	8.0747421E-005	1.0190655E-003	4.5446944E+000
4.4032340E+006	9.6623254E+002	7.6227158E+001	9.6923468E+002	-4.5107851E+000	3.546737741809920E+000	-1.9373691E-005	3.6148998E-005	4.7417494E-004	2.9329199E-006	1.000000000000000E+000	40	1.0240037E-002	1.0565075E-005	1.0285461E-003	8.1143146E-005	1.0317418E-003	4.5107851E+000
3.4922725E+006	9.6832733E+002	6.4608551E+001	9.7048035E+002	-3.8172202E+000	3.656734173709992E+000	-1.1954613E-005	3.5291039E-005	7.0537813E-004	3.1262846E-006	1.000000000000000E+000	40	1.0121729E-002	1.0429608E-005	1.0281317E-003	6.8598805E-005	1.0304176E-003	3.8172202E+000
2.7697750E+006	9.7400806E+002	6.2624184E+001	9.7601923E+002	-3.6787882E+000	3.866602317016032E+000	-1.8497574E-005	3.0292393E-005	9.1755809E-004	3.7774694E-006	1.000000000000000E+000	40	1.0080070E-002	1.0327737E-005	1.0224588E-003	6.5739339E-005	1.0245700E-003	3.6787882E+000
2.1967525E+006	9.7658118E+002	5.1358665E+001	9.7793073E+002	-3.0104270E+000	4.076604246990428E+000	-1.0966637E-005	3.0031259E-005	1.4106695E-003	3.8907788E-006	1.000000000000000E+000	40	1.0990641E-002	1.1238671E-005	1.0211561E-003	5.3702872E-005	1.0225673E-003	3.0104270E+000
1.7422850E+006	9.8312207E+002	5.0090584E+001	9.8439734E+002	-2.9167278E+000	4.286605270298423E+000	-1.5067641E-005	2.9546323E-005	1.8236641E-003	4.7218932E-006	1.000000000000000E+000	40	1.0372953E-002	1.0537365E-005	1.0145340E-003	5.1691037E-005	1.0158500E-003	2.9167278E+000
1.3818358E+006	9.8849542E+002	4.6040985E+001	9.8956708E+002	-2.6667285E+000	4.497592586936662E+000	-1.9243200E-005	2.8389955E-005	2.5016072E-003	5.4152415E-006	1.000000000000000E+000	40	1.0827973E-002	1.0942132E-005	1.0094487E-003	4.7016918E-005	1.0105430E-003	2.6667285E+000
1.0959593E+006	9.9054163E+002	4.3582005E+001	9.9149994E+002	-2.5192838E+000	4.707589503523195E+000	-9.5499381E-006	2.5666837E-005	3.3321038E-003	6.4379492E-006	1.000000000000000E+000	40	1.0081625E-002	1.0168053E-005	1.0075982E-003	4.4332461E-005	1.0085730E-003	2.5192838E+000
8.6921375E+005	9.9358765E+002	4.5961094E+001	9.9465009E+002	-2.6484840E+000	4.917592633544700E+000	3.2436490E-004	8.7609005E-005	3.9838520E-003	8.5063502E-006	1.000000000000000E+000	40	1.0892898E-002	1.0951488E-005	1.0043047E-003	4.6456844E-005	1.0053787E-003	2.6484840E+000
6.8939200E+005	9.9630865E+002	4.4141777E+001	9.9728601E+002	-2.5368490E+000	5.127590856776806E+000	3.6483436E-004	9.4249001E-005	5.2300291E-003	1.0246234E-005	1.000000000000000E+000	40	1.0357398E-002	1.0385584E-005	1.0017387E-003	4.4382356E-005	1.0027214E-003	2.5368490E+000
5.4676506E+005	9.9807715E+002	4.7496075E+001	9.9920660E+002	-2.7245121E+000	5.438595378218452E+000	3.7987757E-004	9.5144307E-005	6.1286050E-003	1.3847344E-005	1.000000000000000E+000	40	1.0062764E-002	1.0070755E-005	9.9966268E-004	4.7571531E-005	1.0007940E-003	2.7245121E+000
4.3365475E+005	9.9975250E+002	5.1842930E+001	1.0010958E+003	-2.9684577E+000	5.648599281586939E+000	3.8988775E-004	1.0137396E-004	7.0792376E-003	1.8985162E-005	1.000000000000000E+000	40	9.9907070E-003	9.9797717E-006	9.9756510E-004	5.1729501E-005	9.9890539E-004	2.9684577E+000
3.4393306E+005	1.0014874E+003	5.8687775E+001	1.0032055E+003	-3.3537323E+000	5.857604784916475E+000	3.8625277E-004	1.0301537E-004	7.8849429E-003	2.6984477E-005	1.000000000000000E+000	40	1.0455433E-002	1.0422025E-005	9.9509757E-004	5.8313326E-005	9.9680468E-004	3.3537323E+000
2.7277828E+005	1.0029612E+003	6.9491432E+001	1.0053657E+003	-3.9634759E+000	6.067605594891120E+000	3.9279572E-004	1.0062797E-004	8.3961291E-003	4.0113766E-005	1.000000000000000E+000	40	1.0399145E-002	1.0343644E-005	9.9228392E-004	6.8751644E-005	9.9466287E-004	3.9634759E+000
2.1634519E+005	1.0054095E+003	8.4041763E+001	1.0089159E+003	-4.7782226E+000	6.278594351519132E+000	3.8224497E-004	9.6151576E-005	8.7534199E-003	6.0737671E-005	1.000000000000000E+000	40	1.0227291E-002	1.0136911E-005	9.8771811E-004	8.2562954E-005	9.9116284E-004	4.7782226E+000
1.7158202E+005	1.0090530E+003	1.0368745E+002	1.0143664E+003	-5.8669610E+000	6.488597828109050E+000	3.8118244E-004	9.9471581E-005	8.9458609E-003	9.3472714E-005	1.000000000000000E+000	40	1.0513475E-002	1.0364573E-005	9.8067324E-004	1.0077121E-004	9.8583708E-004	5.8669610E+000
1.3608397E+005	1.0145654E+003	1.2595625E+002	1.0223541E+003	-7.0769458E+000	6.698599544732133E+000	3.7943019E-004	9.9695404E-005	9.2852460E-003	1.4093868E-004	1.000000000000000E+000	40	1.0554329E-002	1.0323554E-005	9.7068289E-004	1.2050832E-004	9.7813469E-004	7.0769458E+000
1.0793456E+005	1.0237708E+003	1.5676012E+002	1.0357029E+003	-8.7055321E+000	6.908597608126001E+000	3.7702551E-004	9.1152935E-005	9.4064130E-003	2.1548885E-004	1.000000000000000E+000	40	1.0323172E-002	9.9673107E-006	9.5440430E-004	1.4613870E-004	9.6552790E-004	8.7055321E+000
8.5607898E+004	1.0366565E+003	1.9316373E+002	1.0544994E+003	-1.0555070E+001	7.117601324763541E+000	3.7197382E-004	9.3540359E-005	9.6245566E-003	3.2295290E-004	1.000000000000000E+000	40	1.0445845E-002	9.9059762E-006	9.3227107E-004	1.7371324E-004	9.4831729E-004	1.0555070E+001
6.7895500E+004	1.0575527E+003	2.3522169E+002	1.0833961E+003	-1.2539648E+001	7.328597628074931E+000	3.8272963E-004	9.7587763E-005	9.9655613E-003	4.6976641E-004	1.000000000000000E+000	40	1.0287710E-002	9.4957968E-006	9.0100564E-004	2.0040237E-004	9.2302344E-004	1.2539648E+001
5.3845211E+004	1.0898702E+003	2.8586975E+002	1.1267380E+003	-1.4697425E+001	7.537601664712497E+000	3.7913193E-004	9.7662356E-005	1.0339626E-002	6.6557247E-004	1.000000000000000E+000	40	1.0231386E-002	9.0805361E-006	8.5847743E-004	2.2517610E-004	8.8751776E-004	1.4697425E+001
4.2712395E+004	1.1342875E+003	3.4290540E+002	1.1849862E+003	-1.6820543E+001	7.747605194686912E+000	3.8282282E-004	9.2458540E-005	1.0866556E-002	9.0994255E-004	1.000000000000000E+000	40	1.0179996E-002	8.5908141E-006	8.0778648E-004	2.4420119E-004	8.4389170E-004	1.6820543E+001
3.3874504E+004	1.1991279E+003	3.9840216E+002	1.2635791E+003	-1.8378719E+001	7.857743973247125E+000	3.8513431E-004	9.4584822E-005	1.1793033E-002	1.1723682E-003	1.000000000000000E+000	40	1.0933913E-002	8.6531290E-006	7.5103581E-004	2.4952658E-004	7.9140277E-004	1.8378719E+001
2.6867672E+004	1.2807253E+003	4.4933524E+002	1.3572618E+003	-1.9333132E+001	8.067607289885927E+000	3.7626122E-004	9.5330826E-005	1.3183163E-002	1.4448850E-003	1.000000000000000E+000	40	1.0175155E-002	7.4968252E-006	6.9523038E-004	2.4391763E-004	7.3677750E-004	1.9333132E+001
2.1301270E+004	1.3814961E+003	4.8623575E+002	1.4645670E+003	-1.9390192E+001	8.178729775157990E+000	3.8401585E-004	9.2906113E-005	1.5366246E-002	1.6937255E-003	1.000000000000000E+000	40	1.0345901E-002	7.0641363E-006	6.4406713E-004	2.2668793E-004	6.8279565E-004	1.9390192E+001
1.6894525E+004	1.4926799E+003	4.9986102E+002	1.5741520E+003	-1.8514404E+001	8.288728980376618E+000	3.8151795E-004	9.8240474E-005	1.8846245E-002	1.9003346E-003	1.000000000000000E+000	40	1.0394162E-002	6.6030229E-006	6.0238392E-004	2.0172326E-004	6.3526270E-004	1.8514404E+001
1.3403318E+004	1.6060677E+003	4.8743042E+002	1.6784047E+003	-1.6882679E+001	8.397732532219379E+000	3.7760337E-004	9.3428331E-005	2.4361003E-002	2.0545991E-003	1.000000000000000E+000	40	1.0389511E-002	6.1901105E-006	5.7012559E-004	1.7302916E-004	5.9580390E-004	1.6882679E+001
1.0634541E+004	1.7086771E+003	4.5741461E+002	1.7688430E+003	-1.4986732E+001	8.523638431543077E+000	3.7713736E-004	9.5759788E-005	3.2718349E-002	2.1879270E-003	1.000000000000000E+000	40	1.0367854E-002	5.8613764E-006	5.4611161E-004	1.4619464E-004	5.6534127E-004	1.4986732E+001
8.5008584E+003	1.7878810E+003	4.0899182E+002	1.8340646E+003	-1.2885152E+001	8.674244678666582E+000	3.7270080E-004	9.3540242E-005	4.5776516E-002	2.2763694E-003	1.000000000000000E+000	40	1.0349735E-002	5.6430590E-006	5.3150748E-004	1.2158651E-004	5.4523710E-004	1.2885152E+001
6.8027227E+003	1.8496552E+003	3.5711389E+002	1.8838138E+003	-1.0927670E+001	8.858199994050665E+000	3.8030636E-004	9.7158627E-005	6.5513477E-002	2.3543343E-003	1.000000000000000E+000	40	1.0328670E-002	5.4828506E-006	5.2121253E-004	1.0063077E-004	5.3083804E-004	1.0927670E+001
5.3423716E+003	1.8999989E+003	3.0077661E+002	1.9236586E+003	-8.9954805E+000	9.086244324891595E+000	3.6361333E-004	9.5741176E-005	9.9047154E-002	2.4214424E-003	1.000000000000000E+000	40	9.5239487E-003	4.9509558E-006	5.1344908E-004	8.1280828E-005	5.1984278E-004	8.9954805E+000
4.2063442E+003	1.9330653E+003	2.5034055E+002	1.9492080E+003	-7.3789887E+000	9.321539909375133E+000	3.6352014E-004	9.2477123E-005	1.5114163E-001	2.4930451E-003	1.000000000000000E+000	40	9.7644851E-003	5.0094627E-006	5.0878013E-004	6.5889290E-005	5.1302888E-004	7.3789887E+000
3.3360645E+003	1.9599780E+003	2.1331953E+002	1.9715525E+003	-6.2114921E+000	9.557538613938959E+000	3.6900991E-004	9.5060386E-005	2.2364287E-001	2.6181808E-003	1.000000000000000E+000	40	9.9696321E-003	5.0567419E-006	5.0423678E-004	5.4879980E-005	5.0721451E-004	6.2114921E+000
2.6458425E+003	1.9669219E+003	1.7902057E+002	1.9750519E+003	-5.2004814E+000	9.793540785118239E+000	3.6620445E-004	9.2178714E-005	3.3601078E-001	2.7605910E-003	1.000000000000000E+000	40	1.0080184E-002	5.1037564E-006	5.0423160E-004	4.5892943E-005	5.0631579E-004	5.2004814E+000
2.0979866E+003	1.9774174E+003	1.5826225E+002	1.9837405E+003	-4.5759039E+000	1.002984220974031E+001	3.6793805E-004	9.7270618E-005	4.7933605E-001	3.0508796E-003	1.000000000000000E+000	40	1.0150652E-002	5.1169254E-006	5.0249137E-004	4.0216812E-005	5.0409819E-004	4.5759039E+000
1.6634016E+003	1.9846316E+003	1.3926968E+002	1.9895122E+003	-4.0140977E+000	1.026685291432659E+001	3.7536648E-004	9.6291398E-005	6.8701530E-001	3.3665602E-003	1.000000000000000E+000	40	1.0206361E-002	5.1300822E-006	5.0140277E-004	3.5185472E-005	5.0263578E-004	4.0140977E+000
1.3204216E+003	1.9887051E+003	1.3001758E+002	1.9929507E+003	-3.7405608E+000	1.050352988552186E+001	3.7345575E-004	9.5731855E-005	9.2705476E-001	3.9456310E-003	1.000000000000000E+000	40	1.0235572E-002	5.1358884E-006	5.0069962E-004	3.2734744E-005	5.0176855E-004	3.7405608E+000
1.0466724E+003	1.9909858E+003	1.2775420E+002	1.9950804E+003	-3.6714249E+000	1.073926848339033E+001	3.7185266E-004	9.6338037E-005	1.1902391E+000	4.8804930E-003	1.000000000000000E+000	40	1.0251710E-002	5.1384945E-006	5.0020422E-004	3.2096254E-005	5.0123292E-004	3.6714249E+000
8.3026288E+002	1.9948101E+003	1.3087891E+002	1.9990989E+003	-3.7537794E+000	1.097453124125605E+001	3.6072402E-004	9.9070494E-005	1.4646535E+000	6.2777735E-003	1.000000000000000E+000	40	1.0266759E-002	5.1356938E-006	4.9915223E-004	3.2749231E-005	5.0022540E-004	3.7537794E+000
6.5852478E+002	1.9974086E+003	1.4077368E+002	2.0023632E+003	-4.0314350E+000	1.121108674583957E+001	3.6899128E-004	9.9686011E-005	1.7168269E+000	8.4856236E-003	1.000000000000000E+000	40	1.0275474E-002	5.1316733E-006	4.9817417E-004	3.5110399E-005	4.9940991E-004	4.0314350E+000
5.2217242E+002	1.9972847E+003	1.6056425E+002	2.0037283E+003	-4.5961962E+000	1.144570961032878E+001	3.6393024E-004	9.7494441E-005	1.8982673E+000	1.2189263E-002	1.000000000000000E+000	40	1.0277655E-002	5.1292659E-006	4.9746479E-004	3.9991824E-005	4.9906969E-004	4.5961962E+000
4.1407269E+002	2.0044453E+003	1.8520067E+002	2.0129829E+003	-5.2788544E+000	1.168209716820274E+001	3.6242965E-004	1.0516959E-004	2.0753961E+000	1.7567337E-002	1.000000000000000E+000	40	1.0292484E-002	5.1130510E-006	4.9466826E-004	4.5704859E-005	4.9677520E-004	5.2788544E+000
3.2842380E+002	2.0064286E+003	2.2314247E+002	2.0187987E+003	-6.3460011E+000	1.191868997946585E+001	3.6870234E-004	1.0041342E-004	2.1717172E+000	2.6532717E-002	1.000000000000000E+000	40	1.0281463E-002	5.0928620E-006	4.9230893E-004	5.4751523E-005	4.9534411E-004	6.3460011E+000
2.6041641E+002	2.0126899E+003	2.7128195E+002	2.0308901E+003	-7.6763926E+000	1.215424564396380E+001	3.6268131E-004	9.9294324E-005	2.2528427E+000	4.0197570E-002	1.000000000000000E+000	40	1.0279394E-002	5.0615213E-006	4.8798221E-004	6.5773056E-005	4.9239490E-004	7.6763926E+000
2.0665302E+002	2.0248903E+003	3.3515863E+002	2.0524404E+003	-9.3983536E+000	1.238788064173423E+001	3.4709752E-004	9.8846671E-005	2.2978833E+000	6.1275613E-002	1.000000000000000E+000	40	1.0286334E-002	5.0117574E-006	4.8068477E-004	7.9562655E-005	4.8722487E-004	9.3983536E+000
1.6400291E+002	2.0398853E+003	4.1141394E+002	2.0809597E+003	-1.1402724E+001	1.262595726636937E+001	3.5825410E-004	9.9919140E-005	2.3587916E+000	9.2197731E-002	1.000000000000000E+000	40	1.0284641E-002	4.9422583E-006	4.7106238E-004	9.5006144E-005	4.8054752E-004	1.1402724E+001
1.3004169E+002	2.0687358E+003	5.1399323E+002	2.1316326E+003	-1.3953041E+001	1.286155975752627E+001	3.6597144E-004	1.0001240E-004	2.3811138E+000	1.3844275E-001	1.000000000000000E+000	40	1.0290895E-002	4.8277057E-006	4.5528187E-004	1.1311827E-004	4.6912400E-004	1.3953041E+001
1.0305419E+002	2.1128157E+003	6.3314337E+002	2.2056428E+003	-1.6681795E+001	1.310178382231970E+001	3.6695009E-004	9.6393967E-005	2.4392281E+000	2.0099542E-001	1.000000000000000E+000	40	1.0284721E-002	4.6629129E-006	4.3430139E-004	1.3014626E-004	4.5338256E-004	1.6681795E+001
8.1806625E+001	2.1768601E+003	7.8308215E+002	2.3134255E+003	-1.9785187E+001	1.357330760467448E+001	3.7298974E-004	2.3893352E-005	2.4844160E+000	2.8466100E-001	1.000000000000000E+000	41	1.0285487E-002	4.4459989E-006	4.0674242E-004	1.4631751E-004	4.3225943E-004	1.9785187E+001
6.4854691E+001	2.2769873E+003	9.5655560E+002	2.4697510E+003	-2.2787132E+001	1.380912297588657E+001	3.7602821E-004	2.2251881E-005	2.5654793E+000	3.8484213E-001	1.000000000000000E+000	41	1.0291263E-002	4.1669236E-006	3.7329682E-004	1.5682088E-004	4.0489912E-004	2.2787132E+001
5.1465702E+001	2.4210381E+003	1.1494877E+003	2.6800647E+003	-2.5397959E+001	1.403834778678720E+001	3.7006312E-004	2.2122307E-005	2.6902828E+000	4.9489835E-001	1.000000000000000E+000	41	1.0291171E-002	3.8398966E-006	3.3706296E-004	1.6003454E-004	3.7312531E-004	2.5397959E+001
4.0796322E+001	2.6271794E+003	1.3546959E+003	2.9558879E+003	-2.7277737E+001	1.427032049113768E+001	3.7923444E-004	2.2252796E-005	2.8797667E+000	6.0487413E-001	1.000000000000000E+000	41	1.0293766E-002	3.4824614E-006	3.0068643E-004	1.5504791E-004	3.3830781E-004	2.7277737E+001
3.2372250E+001	2.8988506E+003	1.5464458E+003	3.2855486E+003	-2.8078520E+001	1.448948266150546E+001	3.7415480E-004	2.2138123E-005	3.1791613E+000	7.0431376E-001	1.000000000000000E+000	41	1.0283248E-002	3.1298418E-006	2.6854067E-004	1.4325800E-004	3.0436317E-004	2.8078520E+001
2.5665237E+001	3.2441260E+003	1.6939316E+003	3.6597483E+003	-2.7571468E+001	1.471989560584188E+001	3.6732291E-004	2.3018034E-005	3.6608248E+000	7.8427482E-001	1.000000000000000E+000	41	1.0285788E-002	2.8105180E-006	2.4221178E-004	1.2647171E-004	2.7324283E-004	2.7571468E+001
2.0345076E+001	3.6419656E+003	1.7694083E+003	4.0490393E+003	-2.5912281E+001	1.495187372350483E+001	3.6611126E-004	2.3985573E-005	4.4211245E+000	8.4427691E-001	1.000000000000000E+000	41	1.0290574E-002	2.5414854E-006	2.2214261E-004	1.0792550E-004	2.4697217E-004	2.5912281E+001
1.6141533E+001	4.0474233E+003	1.7508333E+003	4.4098813E+003	-2.3392328E+001	1.517307858733693E+001	3.7361422E-004	2.4103016E-005	5.6315842E+000	8.8770026E-001	1.000000000000000E+000	41	1.0286857E-002	2.3326834E-006	2.0812528E-004	9.0030764E-005	2.2676347E-004	2.3392328E+001
1.2807399E+001	4.4255596E+003	1.6467775E+003	4.7220181E+003	-2.0410538E+001	1.544626241366495E+001	3.7504957E-004	2.5000645E-005	7.5461297E+000	9.1778052E-001	1.000000000000000E+000	41	1.0282544E-002	2.1775741E-006	1.9847824E-004	7.3854957E-005	2.1177386E-004	2.0410538E+001
1.0159313E+001	4.7516357E+003	1.4744497E+003	4.9751426E+003	-1.7239305E+001	1.567818962465390E+001	3.7734240E-004	2.5452720E-005	1.0624924E+001	9.3319988E-001	1.000000000000000E+000	41	1.0285231E-002	2.0673240E-006	1.9196942E-004	5.9568807E-005	2.0099926E-004	1.7239305E+001
8.0499792E+000	5.0031802E+003	1.2793185E+003	5.1641523E+003	-1.4343261E+001	1.596692270506173E+001	3.7725564E-004	2.5538522E-005	1.5454206E+001	9.4843149E-001	1.000000000000000E+000	41	1.0289114E-002	1.9924109E-006	1.8760658E-004	4.7971203E-005	1.9364263E-004	1.4343261E+001
6.3879781E+000	5.1768071E+003	1.0782225E+003	5.2879009E+003	-1.1765330E+001	1.615482375399733E+001	3.7508685E-004	2.5301702E-005	2.3107252E+001	9.6072376E-001	1.000000000000000E+000	41	1.0278227E-002	1.9437252E-006	1.8513792E-004	3.8560425E-005	1.8911096E-004	1.1765330E+001
5.0664687E+000	5.3106646E+003	8.8769379E+002	5.3843438E+003	-9.4894342E+000	1.638774808506423E+001	3.8205856E-004	2.5356707E-005	3.5387642E+001	9.6186119E-001	1.000000000000000E+000	41	1.0285932E-002	1.9103409E-006	1.8318222E-004	3.0619463E-005	1.8572365E-004	9.4894342E+000
4.0187755E+000	5.3918428E+003	7.2229517E+002	5.4400073E+003	-7.6299591E+000	1.667734180545085E+001	3.7562146E-004	2.5577667E-005	5.4829170E+001	9.6658963E-001	1.000000000000000E+000	41	1.0280275E-002	1.8897538E-006	1.8219576E-004	2.4407074E-005	1.8382329E-004	7.6299591E+000
3.1874774E+000	5.4495981E+003	5.8218182E+002	5.4806074E+003	-6.0977941E+000	1.703774792926561E+001	3.7340319E-004	2.4603914E-005	8.5765846E+001	9.6777469E-001	1.000000000000000E+000	41	1.0281932E-002	1.8760569E-006	1.8142918E-004	1.9382120E-005	1.8246153E-004	6.0977941E+000
